Title: * RC circuit driven by square wave 
Date: Sun Oct  8 22:29:16  2000
Plotname: Transient Analysis
Flags: real
No. Variables: 6
No. Points: 85      
Command: version 12
Variables:
	0	time	time
	1	gnd	voltage
	2	a	voltage
	3	b	voltage
	4	va#branch	current
	5	vgnd#branch	current
Values:
0		0.000000000000000e+00
	0.000000000000000e+00
	0.000000000000000e+00
	0.000000000000000e+00
	0.000000000000000e+00
	0.000000000000000e+00
1		5.000000000000002e-12
	0.000000000000000e+00
	0.000000000000000e+00
	0.000000000000000e+00
	0.000000000000000e+00
	0.000000000000000e+00
2		1.000000000000000e-11
	0.000000000000000e+00
	0.000000000000000e+00
	0.000000000000000e+00
	0.000000000000000e+00
	0.000000000000000e+00
3		2.000000000000001e-11
	0.000000000000000e+00
	0.000000000000000e+00
	0.000000000000000e+00
	0.000000000000000e+00
	0.000000000000000e+00
4		4.000000000000002e-11
	0.000000000000000e+00
	0.000000000000000e+00
	0.000000000000000e+00
	0.000000000000000e+00
	0.000000000000000e+00
5		8.000000000000003e-11
	0.000000000000000e+00
	0.000000000000000e+00
	0.000000000000000e+00
	0.000000000000000e+00
	0.000000000000000e+00
6		1.600000000000001e-10
	0.000000000000000e+00
	0.000000000000000e+00
	0.000000000000000e+00
	0.000000000000000e+00
	0.000000000000000e+00
7		3.200000000000001e-10
	0.000000000000000e+00
	0.000000000000000e+00
	0.000000000000000e+00
	0.000000000000000e+00
	0.000000000000000e+00
8		6.400000000000003e-10
	0.000000000000000e+00
	0.000000000000000e+00
	0.000000000000000e+00
	0.000000000000000e+00
	0.000000000000000e+00
9		1.280000000000001e-09
	0.000000000000000e+00
	0.000000000000000e+00
	0.000000000000000e+00
	0.000000000000000e+00
	0.000000000000000e+00
10		2.560000000000001e-09
	0.000000000000000e+00
	0.000000000000000e+00
	0.000000000000000e+00
	0.000000000000000e+00
	0.000000000000000e+00
11		5.120000000000002e-09
	0.000000000000000e+00
	0.000000000000000e+00
	0.000000000000000e+00
	0.000000000000000e+00
	0.000000000000000e+00
12		9.120000000000005e-09
	0.000000000000000e+00
	0.000000000000000e+00
	0.000000000000000e+00
	0.000000000000000e+00
	0.000000000000000e+00
13		1.312000000000001e-08
	0.000000000000000e+00
	0.000000000000000e+00
	0.000000000000000e+00
	0.000000000000000e+00
	0.000000000000000e+00
14		1.712000000000001e-08
	0.000000000000000e+00
	0.000000000000000e+00
	0.000000000000000e+00
	0.000000000000000e+00
	0.000000000000000e+00
15		2.112000000000001e-08
	0.000000000000000e+00
	0.000000000000000e+00
	0.000000000000000e+00
	0.000000000000000e+00
	0.000000000000000e+00
16		2.512000000000002e-08
	0.000000000000000e+00
	0.000000000000000e+00
	0.000000000000000e+00
	0.000000000000000e+00
	0.000000000000000e+00
17		2.912000000000002e-08
	0.000000000000000e+00
	0.000000000000000e+00
	0.000000000000000e+00
	0.000000000000000e+00
	0.000000000000000e+00
18		3.312000000000002e-08
	0.000000000000000e+00
	0.000000000000000e+00
	0.000000000000000e+00
	0.000000000000000e+00
	0.000000000000000e+00
19		3.712000000000002e-08
	0.000000000000000e+00
	0.000000000000000e+00
	0.000000000000000e+00
	0.000000000000000e+00
	0.000000000000000e+00
20		4.112000000000003e-08
	0.000000000000000e+00
	0.000000000000000e+00
	0.000000000000000e+00
	0.000000000000000e+00
	0.000000000000000e+00
21		4.512000000000003e-08
	0.000000000000000e+00
	0.000000000000000e+00
	0.000000000000000e+00
	0.000000000000000e+00
	0.000000000000000e+00
22		4.912000000000003e-08
	0.000000000000000e+00
	0.000000000000000e+00
	0.000000000000000e+00
	0.000000000000000e+00
	0.000000000000000e+00
23		5.000000000000002e-08
	0.000000000000000e+00
	0.000000000000000e+00
	0.000000000000000e+00
	0.000000000000000e+00
	0.000000000000000e+00
24		5.001372000139946e-08
	0.000000000000000e+00
	6.860000699718387e-02
	1.877233255427589e-04
	-1.368245673432822e-03
	-5.124549330888517e-20
25		5.004116000419834e-08
	0.000000000000000e+00
	2.058000209915847e-01
	9.375892212019797e-04
	-4.097248635407655e-03
	-4.061522982084370e-19
26		5.009604000979610e-08
	0.000000000000000e+00
	4.802000489803864e-01
	4.671574893413615e-03
	-9.510569481739456e-03
	-4.845028458294598e-19
27		5.016463932075743e-08
	0.000000000000000e+00
	8.231966037870162e-01
	1.348821124072676e-02
	-1.619416785092579e-02
	-2.046431600566390e-18
28		5.030183794268007e-08
	0.000000000000000e+00
	1.509189713400243e+00
	4.469003260352831e-02
	-2.928999361593429e-02
	3.435565634063442e-18
29		5.057623518652536e-08
	0.000000000000000e+00
	2.881175932626696e+00
	1.595560010088557e-01
	-5.443239863235680e-02
	-2.175180608549043e-18
30		5.100000000000003e-08
	0.000000000000000e+00
	5.000000000000000e+00
	4.669820287810404e-01
	-9.066035942437919e-02
	-9.893344823930228e-19
31		5.105487944876909e-08
	0.000000000000000e+00
	5.000000000000000e+00
	5.161957696905909e-01
	-8.967608460618819e-02
	-4.531965080989409e-17
32		5.116463834630720e-08
	0.000000000000000e+00
	5.000000000000000e+00
	6.135546511601278e-01
	-8.772890697679744e-02
	-9.128982292327947e-17
33		5.138415614138343e-08
	0.000000000000000e+00
	5.000000000000000e+00
	8.019985348164886e-01
	-8.396002930367023e-02
	9.925870889104793e-17
34		5.182319173153590e-08
	0.000000000000000e+00
	5.000000000000000e+00
	1.155110090919698e+00
	-7.689779818160604e-02
	3.686287386450715e-18
35		5.270126291184084e-08
	0.000000000000000e+00
	5.000000000000000e+00
	1.775824363633995e+00
	-6.448351272732010e-02
	2.439454888092385e-17
36		5.445740527245070e-08
	0.000000000000000e+00
	5.000000000000000e+00
	2.739084460252097e+00
	-4.521831079495806e-02
	-8.700722434196173e-18
37		5.796968999367044e-08
	0.000000000000000e+00
	5.000000000000000e+00
	3.914456245269961e+00
	-2.171087509460078e-02
	4.725766219321192e-17
38		6.196968999367043e-08
	0.000000000000000e+00
	5.000000000000000e+00
	4.534766962258554e+00
	-9.304660754828919e-03
	-7.386127300057499e-18
39		6.596968999367043e-08
	0.000000000000000e+00
	5.000000000000000e+00
	4.800614412396523e+00
	-3.987711752069547e-03
	4.426255369172072e-17
40		6.996968999367042e-08
	0.000000000000000e+00
	5.000000000000000e+00
	4.914549033884223e+00
	-1.709019322315530e-03
	3.081844675290046e-17
41		7.396968999367042e-08
	0.000000000000000e+00
	5.000000000000000e+00
	4.963378157378952e+00
	-7.324368524209568e-04
	5.060513640076092e-17
42		7.796968999367042e-08
	0.000000000000000e+00
	5.000000000000000e+00
	4.984304924590980e+00
	-3.139015081804075e-04
	-1.493488492598782e-17
43		8.196968999367041e-08
	0.000000000000000e+00
	5.000000000000000e+00
	4.993273539110421e+00
	-1.345292177915880e-04
	1.168227840853131e-17
44		8.596968999367041e-08
	0.000000000000000e+00
	5.000000000000000e+00
	4.997117231047323e+00
	-5.765537905354279e-05
	2.276824562219559e-17
45		8.996968999367041e-08
	0.000000000000000e+00
	5.000000000000000e+00
	4.998764527591710e+00
	-2.470944816579390e-05
	1.387778780781446e-17
46		9.396968999367040e-08
	0.000000000000000e+00
	5.000000000000000e+00
	4.999470511825018e+00
	-1.058976349963103e-05
	3.889575293791747e-18
47		9.796968999367040e-08
	0.000000000000000e+00
	5.000000000000000e+00
	4.999773076496437e+00
	-4.538470071260294e-06
	-6.098637220230962e-18
48		1.000000000000000e-07
	0.000000000000000e+00
	5.000000000000000e+00
	4.999849670542595e+00
	-3.006589148100149e-06
	-5.618877758906127e-17
49		1.001000000000000e-07
	0.000000000000000e+00
	4.500000000000027e+00
	4.990048696610389e+00
	9.800973932207243e-03
	-2.831936074532138e-16
50		1.003000000000000e-07
	0.000000000000000e+00
	3.500000000000013e+00
	4.951223257527631e+00
	2.902446515055235e-02
	1.127570259384925e-16
51		1.007000000000000e-07
	0.000000000000000e+00
	1.499999999999987e+00
	4.762667622333200e+00
	6.525335244666426e-02
	-1.821459649775647e-16
52		1.010000000000000e-07
	0.000000000000000e+00
	0.000000000000000e+00
	4.528919993847773e+00
	9.057839987695547e-02
	4.362829542081670e-16
53		1.010800000000000e-07
	0.000000000000000e+00
	0.000000000000000e+00
	4.457598419141509e+00
	8.915196838283018e-02
	6.331740687315346e-16
54		1.012400000000000e-07
	0.000000000000000e+00
	0.000000000000000e+00
	4.317201618538626e+00
	8.634403237077252e-02
	3.473783760643556e-16
55		1.015600000000000e-07
	0.000000000000000e+00
	0.000000000000000e+00
	4.049468184830806e+00
	8.098936369661612e-02
	9.302454639925628e-17
56		1.022000000000000e-07
	0.000000000000000e+00
	0.000000000000000e+00
	3.562314117482742e+00
	7.124628234965484e-02
	-4.835541689285350e-17
57		1.034800000000000e-07
	0.000000000000000e+00
	0.000000000000000e+00
	2.753845665288082e+00
	5.507691330576164e-02
	-9.703609443745265e-18
58		1.060400000000000e-07
	0.000000000000000e+00
	0.000000000000000e+00
	1.631258897272561e+00
	3.262517794545123e-02
	8.145068820797352e-18
59		1.100400000000000e-07
	0.000000000000000e+00
	0.000000000000000e+00
	6.991109559739550e-01
	1.398221911947910e-02
	1.528047436846758e-18
60		1.133858977201869e-07
	0.000000000000000e+00
	0.000000000000000e+00
	3.485682195025457e-01
	6.971364390050914e-03
	1.035074261544755e-18
61		1.164282441841334e-07
	0.000000000000000e+00
	0.000000000000000e+00
	1.859494310844993e-01
	3.718988621689985e-03
	1.416239087809190e-18
62		1.196845929931872e-07
	0.000000000000000e+00
	0.000000000000000e+00
	9.459453130354480e-02
	1.891890626070896e-03
	-3.214490034830070e-19
63		1.230850975933692e-07
	0.000000000000000e+00
	0.000000000000000e+00
	4.658601991578762e-02
	9.317203983157524e-04
	-4.252105395216588e-19
64		1.265042731109810e-07
	0.000000000000000e+00
	0.000000000000000e+00
	2.284599526971512e-02
	4.569199053943023e-04
	1.248314806016025e-19
65		1.298318782801816e-07
	0.000000000000000e+00
	0.000000000000000e+00
	1.143772634369389e-02
	2.287545268738777e-04
	-2.890499932505300e-20
66		1.331512717055513e-07
	0.000000000000000e+00
	0.000000000000000e+00
	5.736819040494918e-03
	1.147363808098984e-04
	-4.094874904382508e-20
67		1.364760822836329e-07
	0.000000000000000e+00
	0.000000000000000e+00
	2.873913557732933e-03
	5.747827115465866e-05
	1.402898318889935e-20
68		1.398297329194433e-07
	0.000000000000000e+00
	0.000000000000000e+00
	1.430397879060197e-03
	2.860795758120394e-05
	1.240770918829542e-20
69		1.431724290546777e-07
	0.000000000000000e+00
	0.000000000000000e+00
	7.136933369316130e-04
	1.427386673863226e-05
	5.595049663308679e-21
70		1.465159079284737e-07
	0.000000000000000e+00
	0.000000000000000e+00
	3.560326973084803e-04
	7.120653946169606e-06
	4.810882442608409e-21
71		1.498503209981507e-07
	0.000000000000000e+00
	0.000000000000000e+00
	1.779731047438250e-04
	3.559462094876501e-06
	1.833859418030062e-21
72		1.531924800227155e-07
	0.000000000000000e+00
	0.000000000000000e+00
	8.880996149927905e-05
	1.776199229985581e-06
	-6.158359660457291e-22
73		1.565315886053205e-07
	0.000000000000000e+00
	0.000000000000000e+00
	4.434730451937012e-05
	8.869460903874024e-07
	1.218023451984333e-22
74		1.600788283551087e-07
	0.000000000000000e+00
	0.000000000000000e+00
	2.112330844451934e-05
	4.224661688903868e-07
	8.271806125530277e-24
75		1.640788283551087e-07
	0.000000000000000e+00
	0.000000000000000e+00
	9.052846476222577e-06
	1.810569295244516e-07
	-4.629626490882727e-23
76		1.680788283551087e-07
	0.000000000000000e+00
	0.000000000000000e+00
	3.879791346952535e-06
	7.759582693905070e-08
	-1.809457589959748e-25
77		1.720788283551087e-07
	0.000000000000000e+00
	0.000000000000000e+00
	1.662767720122515e-06
	3.325535440245030e-08
	-1.971016303349011e-24
78		1.760788283551088e-07
	0.000000000000000e+00
	0.000000000000000e+00
	7.126147371953638e-07
	1.425229474390728e-08
	3.647995748329563e-24
79		1.800788283551088e-07
	0.000000000000000e+00
	0.000000000000000e+00
	3.054063159408702e-07
	6.108126318817403e-09
	2.295749317261430e-24
80		1.840788283551088e-07
	0.000000000000000e+00
	0.000000000000000e+00
	1.308884211175158e-07
	2.617768422350316e-09
	2.984797229866638e-25
81		1.880788283551088e-07
	0.000000000000000e+00
	0.000000000000000e+00
	5.609503762179250e-08
	1.121900752435850e-09
	1.750892556356140e-25
82		1.920788283551088e-07
	0.000000000000000e+00
	0.000000000000000e+00
	2.404073040933965e-08
	4.808146081867930e-10
	5.735334325318844e-26
83		1.960788283551088e-07
	0.000000000000000e+00
	0.000000000000000e+00
	1.030317017543128e-08
	2.060634035086256e-10
	-2.726303288443817e-27
84		2.000000000000001e-07
	0.000000000000000e+00
	0.000000000000000e+00
	4.498989352875767e-09
	8.997978705751535e-11
	-3.237485155027032e-26
